X--Trace 1::[interactive: TIME],Y--Trace 1::[V_in: V(2)],,X--Trace 2::[interactive: TIME],Y--Trace 2::[V_out: V(3)]
0,0,,0,0.0011803070014960882
0.0000010000000000000002,0.0020000000000000005,,0.0000010000000000000002,-0.8095888159593998
0.0000020000000000000003,0.004000000000000001,,0.0000020000000000000003,-0.7880600659504984
0.000004000000000000001,0.008000000000000002,,0.000004000000000000001,-0.8096685060988893
0.000008000000000000001,0.016000000000000004,,0.000008000000000000001,-0.7879212168274422
0.000016000000000000003,0.03200000000000001,,0.000016000000000000003,-0.8097526200372743
0.000032000000000000005,0.06400000000000002,,0.000032000000000000005,-0.7878674396229284
0.00006400000000000001,0.12800000000000003,,0.00006400000000000001,-0.8097823965916261
0.00012800000000000002,0.25600000000000006,,0.00012800000000000002,-0.7878518873472835
0.000228,0.456,,0.000228,-0.8097910902035926
0.000328,0.656,,0.000328,-0.7878450077054688
0.000428,0.856,,0.000428,-0.8097980450689501
0.0005,1,,0.0005,-0.7878365927088056
0.00051,0.98,,0.00051,0.8013904682903985
0.0005300000000000001,0.9399999999999998,,0.0005300000000000001,0.8005561685096801
0.0005700000000000001,0.8599999999999999,,0.0005700000000000001,0.8020115501493508
0.0006500000000000001,0.6999999999999998,,0.0006500000000000001,0.8002457734979096
0.0007500000000000001,0.4999999999999998,,0.0007500000000000001,0.8021977686984756
0.0008500000000000002,0.2999999999999997,,0.0008500000000000002,0.8000802388964807
0.0009500000000000002,0.09999999999999964,,0.0009500000000000002,0.802363310182478
0.001,0,,0.001,0.799831909113424
0.00101,0.020000000000000052,,0.00101,-0.7988320922474751
0.00103,0.06000000000000016,,0.00103,-0.7983927128999533
0.0010700000000000002,0.14000000000000037,,0.0010700000000000002,-0.7994541207190301
0.0011500000000000002,0.3000000000000003,,0.0011500000000000002,-0.7980818179150654
0.0012500000000000002,0.5000000000000004,,0.0012500000000000002,-0.7996406352093206
0.0013500000000000003,0.7000000000000005,,0.0013500000000000003,-0.7979160219768711
0.0014500000000000003,0.9000000000000006,,0.0014500000000000003,-0.7998064365916666
0.0015,1,,0.0015,-0.7976673054282666
0.00151,0.98,,0.00151,0.8011933193224785
0.0015300000000000001,0.9399999999999998,,0.0015300000000000001,0.8007500560120074
0.0015700000000000002,0.8599999999999997,,0.0015700000000000002,0.8018197124923148
0.0016500000000000002,0.6999999999999997,,0.0016500000000000002,0.8004365868014323
0.0017500000000000003,0.49999999999999956,,0.0017500000000000003,0.802007775679907
0.0018500000000000003,0.2999999999999995,,0.0018500000000000003,0.8002694122613434
0.0019500000000000003,0.09999999999999942,,0.0019500000000000003,0.802174955857255
0.002,0,,0.002,0.8000186271972928
0.00201,0.020000000000000052,,0.00201,-0.7988300656673695
0.00203,0.06000000000000016,,0.00203,-0.7983946936657444
0.0020700000000000002,0.14000000000000037,,0.0020700000000000002,-0.7994521681790391
0.0021500000000000004,0.30000000000000077,,0.0021500000000000004,-0.7980837566357784
0.0022500000000000003,0.5000000000000004,,0.0022500000000000003,-0.7996387074707351
0.00235,0.7000000000000001,,0.00235,-0.7979179387498568
0.00245,0.8999999999999997,,0.00245,-0.7998045308008938
0.0025,1,,0.0025,-0.7976691889604486
0.00251,0.98,,0.00251,0.801193280118325
0.00253,0.9399999999999998,,0.00253,0.8007501258163039
0.0025700000000000002,0.8599999999999997,,0.0025700000000000002,0.80181962305175
0.0026500000000000004,0.6999999999999993,,0.0026500000000000004,0.8004366861571872
0.0027500000000000003,0.49999999999999956,,0.0027500000000000003,0.8020076683531474
0.00285,0.29999999999999993,,0.00285,0.8002695275745034
0.00295,0.10000000000000031,,0.00295,0.8021748324886467
0.003,0,,0.003,0.8000187668773091
0.00301,0.020000000000000052,,0.00301,-0.7988300875281191
0.00303,0.06000000000000016,,0.00303,-0.7983946678844878
0.0030700000000000002,0.14000000000000037,,0.0030700000000000002,-0.7994521966196049
0.0031500000000000005,0.30000000000000077,,0.0031500000000000005,-0.7980837268196475
0.0032500000000000003,0.5000000000000004,,0.0032500000000000003,-0.7996387383999449
0.00335,0.7000000000000001,,0.00335,-0.7979179066462176
0.00345,0.8999999999999997,,0.00345,-0.79980456412434
0.0035,1,,0.0035,-0.7976691533221295
0.00351,0.98,,0.00351,0.8011932790010348
0.00353,0.9399999999999998,,0.00353,0.8007501217956814
0.0035700000000000003,0.8599999999999997,,0.0035700000000000003,0.8018196307063362
0.0036500000000000005,0.6999999999999993,,0.0036500000000000005,0.8004366766343877
0.0037500000000000003,0.49999999999999956,,0.0037500000000000003,0.8020076793970446
0.00385,0.29999999999999993,,0.00385,0.8002695149493441
0.00395,0.09999999999999942,,0.00395,0.8021748467374568
0.004,0,,0.004,0.8000187493975474
0.00401,0.019999999999999185,,0.00401,-0.7988300852656065
0.00403,0.05999999999999929,,0.00403,-0.7983946665330033
0.00407,0.13999999999999949,,0.00407,-0.7994521999162165
0.00415,0.29999999999999993,,0.00415,-0.7980837225476892
0.00425,0.5000000000000004,,0.00425,-0.7996387433916011
0.004350000000000001,0.700000000000001,,0.004350000000000001,-0.7979179009708066
0.004450000000000001,0.9000000000000015,,0.004450000000000001,-0.7998045704702555
0.0045000000000000005,0.9999999999999991,,0.0045000000000000005,-0.7976691457049023
0.00451,0.98,,0.00451,0.8011932745838525
0.00453,0.9399999999999998,,0.00453,0.8007501347379784
0.00457,0.8599999999999997,,0.00457,0.8018196117949603
0.0046500000000000005,0.6999999999999993,,0.0046500000000000005,0.8004366987483875
0.004750000000000001,0.49999999999999867,,0.004750000000000001,0.802007654625692
0.004850000000000001,0.29999999999999816,,0.004850000000000001,0.8002695424631732
0.004950000000000001,0.09999999999999765,,0.004950000000000001,0.8021748164563196
0.005,0,,0.005,0.800018784900427
0.00501,0.019999999999999185,,0.00501,-0.7988300866840594
0.00503,0.05999999999999929,,0.00503,-0.7983946771397025
0.00507,0.13999999999999949,,0.00507,-0.7994521819866587
0.00515,0.29999999999999993,,0.00515,-0.7980837441109795
0.00525,0.5000000000000004,,0.00525,-0.7996387189815171
0.005350000000000001,0.700000000000001,,0.005350000000000001,-0.7979179282414909
0.005450000000000001,0.9000000000000015,,0.005450000000000001,-0.7998045402813379
0.0055,0.9999999999999991,,0.0055,-0.7976691818992351
0.005509999999999999,0.9800000000000016,,0.005509999999999999,0.8011932856682101
0.005529999999999999,0.9400000000000016,,0.005529999999999999,0.8007501144177598
0.005569999999999999,0.8600000000000014,,0.005569999999999999,0.8018196382929235
0.00565,0.700000000000001,,0.00565,0.8004366688651525
0.00575,0.5000000000000004,,0.00575,0.8020076873291513
0.00585,0.29999999999999993,,0.00585,0.8002695068598187
0.00595,0.09999999999999942,,0.00595,0.8021748550622823
0.006,0,,0.006,0.8000187401364368
0.00601,0.019999999999999185,,0.00601,-0.798830078998829
0.00603,0.05999999999999929,,0.00603,-0.7983946847533546
0.00607,0.13999999999999949,,0.00607,-0.7994521744450427
0.00615,0.29999999999999993,,0.00615,-0.7980837515188395
0.00625,0.5000000000000004,,0.00625,-0.7996387117583891
0.006350000000000001,0.700000000000001,,0.006350000000000001,-0.7979179352463134
0.006450000000000001,0.9000000000000015,,0.006450000000000001,-0.7998045334995884
0.006500000000000001,0.9999999999999991,,0.006500000000000001,-0.7976691882006137
0.00651,0.98,,0.00651,0.801193289371559
0.00653,0.9399999999999998,,0.00653,0.8007500985982551
0.00657,0.8599999999999997,,0.00657,0.801819661641019
0.0066500000000000005,0.6999999999999993,,0.0066500000000000005,0.8004366419726812
0.006750000000000001,0.49999999999999867,,0.006750000000000001,0.8020077169543712
0.006850000000000001,0.29999999999999816,,0.006850000000000001,0.8002694745401017
0.006950000000000001,0.09999999999999765,,0.006950000000000001,0.8021748900844993
0.007,0,,0.007,0.8000186995673724
0.00701,0.019999999999999185,,0.00701,-0.7988300704006079
0.00703,0.05999999999999929,,0.00703,-0.7983946968885194
0.00707,0.13999999999999949,,0.00707,-0.7994521604304999
0.00715,0.29999999999999993,,0.00715,-0.7980837664440003
0.00725,0.5000000000000004,,0.00725,-0.7996386960492836
0.007350000000000001,0.700000000000001,,0.007350000000000001,-0.797917951783342
0.007450000000000001,0.9000000000000015,,0.007450000000000001,-0.7998045161218005
0.0075,0.9999999999999991,,0.0075,-0.79766920732157
0.007509999999999999,0.9800000000000016,,0.007509999999999999,0.8011932983211257
0.007529999999999999,0.9400000000000016,,0.007529999999999999,0.8007500706983778
0.0075699999999999995,0.8600000000000014,,0.0075699999999999995,0.8018197022893465
0.00765,0.700000000000001,,0.00765,0.8004365946532409
0.00775,0.5000000000000004,,0.00775,0.8020077696607479
0.00785,0.3000000000000016,,0.00785,0.8002694164544589
0.007949999999999999,0.10000000000000286,,0.007949999999999999,0.8021749535205034
0.008,0,,0.008,0.8000186258594073
0.00801,0.019999999999999185,,0.00801,-0.7988300638812966
0.008029999999999999,0.059999999999997555,,0.008029999999999999,-0.7983946889005628
0.008069999999999999,0.13999999999999777,,0.008069999999999999,-0.7994521768356337
0.00815,0.29999999999999816,,0.00815,-0.7980837459593797
0.008249999999999999,0.49999999999999695,,0.008249999999999999,-0.7996387198101167
0.008349999999999998,0.6999999999999957,,0.008349999999999998,-0.7979179247391184
0.008449999999999997,0.8999999999999946,,0.008449999999999997,-0.7998045464674106
0.0085,0.9999999999999991,,0.0085,-0.7976691699484771
0.00851,0.98,,0.00851,0.8011932681136329
0.00853,0.9400000000000016,,0.00853,0.8007501589976368
0.00857,0.8600000000000014,,0.00857,0.801819576218248
0.00865,0.700000000000001,,0.00865,0.8004367400047682
0.008749999999999999,0.5000000000000022,,0.008749999999999999,0.8020076088095881
0.008849999999999998,0.3000000000000034,,0.008849999999999998,0.800269592825932
0.008949999999999998,0.10000000000000464,,0.008949999999999998,0.8021747615508816
0.009000000000000001,0,,0.009000000000000001,0.8000188491365878
0.00901,0.019999999999999185,,0.00901,-0.7988301023925258
0.00903,0.059999999999997555,,0.00903,-0.7983946515848823
0.00907,0.13999999999999777,,0.00907,-0.7994522135595631
0.00915,0.29999999999999816,,0.00915,-0.7980837096627683
0.00925,0.49999999999999695,,0.00925,-0.7996387556465098
0.009349999999999999,0.6999999999999957,,0.009349999999999999,-0.7979178893536261
0.009449999999999998,0.8999999999999946,,0.009449999999999998,-0.7998045814402718
0.009500000000000001,0.9999999999999991,,0.009500000000000001,-0.7976691361316367
0.009510000000000001,0.98,,0.009510000000000001,0.8011932945234772
0.00953,0.9400000000000016,,0.00953,0.8007500648902087
0.00957,0.8600000000000014,,0.00957,0.8018197141956096
0.00965,0.700000000000001,,0.00965,0.8004365796080746
0.00975,0.5000000000000022,,0.00975,0.8020077872633004
0.00985,0.3000000000000034,,0.00985,0.8002693963124843
0.009949999999999999,0.10000000000000464,,0.009949999999999999,0.8021749761391616
0.010000000000000002,3.469446951953614e-15,,0.010000000000000002,0.8000185983688634
0.010010000000000002,0.020000000000002655,,0.010010000000000002,-0.7988300566100007
0.01003,0.060000000000001025,,0.01003,-0.7983946991714377
0.01007,0.14000000000000123,,0.01007,-0.7994521647309741
0.010150000000000001,0.30000000000000165,,0.010150000000000001,-0.7980837590224554
0.01025,0.5000000000000004,,0.01025,-0.799638706003786
0.01035,0.6999999999999992,,0.01035,-0.7979179392018667
0.01045,0.899999999999998,,0.01045,-0.7998045314091325
0.0105,0.9999999999999991,,0.0105,-0.7976691863601708
0.01051,0.98,,0.01051,0.801193291140802
0.01053,0.9400000000000016,,0.01053,0.8007500778146339
0.01057,0.8600000000000014,,0.01057,0.8018196950027657
0.01065,0.700000000000001,,0.01065,0.8004366019867204
0.01075,0.5000000000000022,,0.01075,0.8020077623863491
0.010849999999999999,0.3000000000000034,,0.010849999999999999,0.8002694236625958
0.010949999999999998,0.10000000000000464,,0.010949999999999998,0.8021749463200596
0.011,0,,0.011,0.8000186330353147
0.011009999999999999,0.019999999999999185,,0.011009999999999999,-0.7988300610823084
0.011029999999999998,0.059999999999997555,,0.011029999999999998,-0.7983946987574243
0.011069999999999998,0.13999999999999777,,0.011069999999999998,-0.7994521625545481
0.011149999999999998,0.29999999999999816,,0.011149999999999998,-0.7980837625366981
0.011249999999999998,0.49999999999999695,,0.011249999999999998,-0.7996387013707554
0.011349999999999997,0.6999999999999957,,0.011349999999999997,-0.797917944899151
0.011449999999999997,0.8999999999999946,,0.011449999999999997,-0.7998045247350317
0.0115,0.9999999999999991,,0.0115,-0.7976691948226314
0.01151,0.98,,0.01151,0.8011932741607032
0.011529999999999999,0.9400000000000016,,0.011529999999999999,0.8007501469698229
0.011569999999999999,0.8600000000000014,,0.011569999999999999,0.8018195925553253
0.011649999999999999,0.700000000000001,,0.011649999999999999,0.8004367212857519
0.011749999999999998,0.5000000000000022,,0.011749999999999998,0.8020076294797485
0.011849999999999998,0.3000000000000034,,0.011849999999999998,0.8002695702137339
0.011949999999999997,0.10000000000000464,,0.011949999999999997,0.8021747860871421
0.012,0,,0.012,0.8000188206760807
0.01201,0.019999999999999185,,0.01201,-0.7988300960488017
0.012029999999999999,0.059999999999997555,,0.012029999999999999,-0.798394661260278
0.012069999999999999,0.13999999999999777,,0.012069999999999999,-0.7994522018056773
0.01215,0.29999999999999816,,0.01215,-0.7980837224359538
0.012249999999999999,0.49999999999999695,,0.012249999999999999,-0.7996387421717596
0.012349999999999998,0.6999999999999957,,0.012349999999999998,-0.7979179034427311
0.012449999999999998,0.8999999999999946,,0.012449999999999998,-0.799804566711984
0.0125,0.9999999999999991,,0.0125,-0.7976691521335084
0.01251,0.98,,0.01251,0.8011932743515164
0.01253,0.9400000000000016,,0.01253,0.8007501448637336
0.01257,0.8600000000000014,,0.01257,0.8018195958414335
0.01265,0.700000000000001,,0.01265,0.8004367172956889
0.01275,0.5000000000000022,,0.01275,0.8020076340769988
0.012849999999999999,0.3000000000000034,,0.012849999999999999,0.8002695650046528
0.012949999999999998,0.10000000000000464,,0.012949999999999998,0.8021747919395815
0.013000000000000001,0,,0.013000000000000001,0.8000188133430008
0.01301,0.019999999999999185,,0.01301,-0.7988300926152899
0.01303,0.059999999999997555,,0.01303,-0.7983946683342618
0.01307,0.13999999999999777,,0.01307,-0.7994521925483654
0.01315,0.29999999999999816,,0.01315,-0.7980837328045036
0.01325,0.49999999999999695,,0.01325,-0.7996387308431319
0.013349999999999999,0.6999999999999957,,0.013349999999999999,-0.7979179157681943
0.013449999999999998,0.8999999999999946,,0.013449999999999998,-0.799804553489041
0.013500000000000002,0.9999999999999991,,0.013500000000000002,-0.7976691668170791
0.013510000000000001,0.98,,0.013510000000000001,0.8011932913863703
0.01353,0.9400000000000016,,0.01353,0.8007500852114344
0.01357,0.8600000000000014,,0.01357,0.8018196826316429
0.01365,0.700000000000001,,0.01365,0.8004366170355541
0.01375,0.5000000000000022,,0.01375,0.8020077450515058
0.01385,0.3000000000000034,,0.01385,0.800269443300092
0.013949999999999999,0.10000000000000464,,0.013949999999999999,0.8021749244409911
0.014000000000000002,3.469446951953614e-15,,0.014000000000000002,0.8000186592313846
0.014010000000000002,0.020000000000002655,,0.014010000000000002,-0.7988300647752172
0.01403,0.060000000000001025,,0.01403,-0.7983946987954421
0.014070000000000001,0.14000000000000123,,0.014070000000000001,-0.7994521604460919
0.014150000000000001,0.30000000000000165,,0.014150000000000001,-0.7980837655506016
0.01425,0.5000000000000004,,0.01425,-0.7996386977164496
0.01435,0.6999999999999992,,0.01435,-0.7979179492884134
0.01445,0.899999999999998,,0.01445,-0.7998045194801456
0.0145,0.9999999999999991,,0.0145,-0.7976692018583542
0.01451,0.98,,0.01451,0.8011932781539158
0.01453,0.9400000000000016,,0.01453,0.8007501390253974
0.01457,0.8600000000000014,,0.01457,0.801819602428382
0.01465,0.700000000000001,,0.01465,0.8004367105305418
0.01475,0.5000000000000022,,0.01475,0.802007640992438
0.014849999999999999,0.3000000000000034,,0.014849999999999999,0.8002695579212946
0.014949999999999998,0.10000000000000464,,0.014949999999999998,0.8021747991844986
0.015,0,,0.015,0.8000188059239492
0.015009999999999999,0.019999999999999185,,0.015009999999999999,-0.7988300938512284
0.015029999999999998,0.059999999999997555,,0.015029999999999998,-0.7983946639052311
0.015069999999999998,0.13999999999999777,,0.015069999999999998,-0.7994521990454011
0.015149999999999999,0.29999999999999816,,0.015149999999999999,-0.7980837251068684
0.015249999999999998,0.49999999999999695,,0.015249999999999998,-0.7996387395821214
0.015349999999999997,0.6999999999999957,,0.015349999999999997,-0.7979179059721012
0.015449999999999997,0.8999999999999946,,0.015449999999999997,-0.7998045643083228
0.0155,0.9999999999999991,,0.0155,-0.7976691541691061
0.01551,0.98,,0.01551,0.8011932882753485
0.015529999999999999,0.9400000000000016,,0.015529999999999999,0.800750090887466
0.015569999999999999,0.8600000000000014,,0.015569999999999999,0.8018196755517415
0.015649999999999997,0.7000000000000044,,0.015649999999999997,0.8004366246994992
0.015749999999999997,0.5000000000000057,,0.015749999999999997,0.8020077370154667
0.015849999999999996,0.3000000000000068,,0.015849999999999996,0.8002694516676965
0.015949999999999995,0.10000000000000808,,0.015949999999999995,0.8021749156801725
0.016,0,,0.016,0.8000186689830012
0.01601,0.019999999999999185,,0.01601,-0.7988300677469649
0.01603,0.059999999999997555,,0.01603,-0.7983946916020812
0.016069999999999997,0.1399999999999943,,0.016069999999999997,-0.7994521701814774
0.016149999999999998,0.2999999999999947,,0.016149999999999998,-0.7980837546850943
0.016249999999999997,0.4999999999999935,,0.016249999999999997,-0.7996387093628959
0.016349999999999996,0.6999999999999923,,0.016349999999999996,-0.7979179368709863
0.016449999999999996,0.899999999999991,,0.016449999999999996,-0.7998045326993912
0.0165,0.9999999999999991,,0.0165,-0.7976691872172778
0.01651,0.98,,0.01651,0.8011932872844271
0.01653,0.9400000000000016,,0.01653,0.8007501007353229
0.016569999999999998,0.8600000000000049,,0.016569999999999998,0.8018196591727521
0.016649999999999998,0.7000000000000044,,0.016649999999999998,0.8004366446343533
0.016749999999999998,0.5000000000000057,,0.016749999999999998,0.8020077141486929
0.016849999999999997,0.3000000000000068,,0.016849999999999997,0.8002694775110373
0.016949999999999996,0.10000000000000808,,0.016949999999999996,0.8021748868042744
0.017,0,,0.017,0.8000187041735632
0.01701,0.019999999999999185,,0.01701,-0.7988300764253042
0.01703,0.059999999999997555,,0.01703,-0.7983946814573918
0.01707,0.1399999999999943,,0.01707,-0.7994521814477233
0.01715,0.2999999999999947,,0.01715,-0.79808374270904
0.017249999999999998,0.4999999999999935,,0.017249999999999998,-0.7996387219314661
0.017349999999999997,0.6999999999999923,,0.017349999999999997,-0.7979179236723368
0.017449999999999997,0.899999999999991,,0.017449999999999997,-0.7998045466036728
0.0175,0.9999999999999991,,0.0175,-0.7976691717523096
0.01751,0.98,,0.01751,0.8011932879462892
0.01753,0.9400000000000016,,0.01753,0.8007500923591474
0.01757,0.8600000000000049,,0.01757,0.8018196727083764
0.01765,0.7000000000000044,,0.01765,0.8004366283117952
0.01775,0.5000000000000057,,0.01775,0.8020077328102573
0.017849999999999998,0.3000000000000068,,0.017849999999999998,0.8002694565188921
0.017949999999999997,0.10000000000000808,,0.017949999999999997,0.8021749101747411
0.018000000000000002,0,,0.018000000000000002,0.8000186757719849
0.01801,0.019999999999999185,,0.01801,-0.7988300694822209
0.01803,0.059999999999997555,,0.01803,-0.7983946894932525
0.01807,0.1399999999999943,,0.01807,-0.7994521727793608
0.01815,0.2999999999999947,,0.01815,-0.7980837517044072
0.01825,0.4999999999999935,,0.01825,-0.7996387127130427
0.018349999999999998,0.6999999999999923,,0.018349999999999998,-0.7979179331332
